[2026-Mar-19 18:10:08] [debug] --------------------------------------------------------------------------------
[2026-Mar-19 18:10:08] [debug] nrfjprog -f nrf52 --program /Users/louis/Downloads/RAK4630LEDTEST/build/RAK4630LEDTEST.ino_full.hex --chiperase --reset --log 
[2026-Mar-19 18:10:08] [debug] nrfjprog version 10.24.2 external
[2026-Mar-19 18:10:08] [debug] --------------------------------------------------------------------------------
[2026-Mar-19 18:10:08] [ info] Load library at /Applications/Nordic Semiconductor/lib/libnrfjprogdll.dylib.
[2026-Mar-19 18:10:08] [ info] Library loaded, loading member functions.
[2026-Mar-19 18:10:08] [ info] Member functions succesfully loaded.
[2026-Mar-19 18:10:08] [debug] [ Client] - open
[2026-Mar-19 18:10:08] [debug] [ Client] - start
[2026-Mar-19 18:10:08] [ info] [ Client] - stdout: Jlinkarm nRF Worker ready. Handling sequence 18b20e4b-67b6-4666-b982-0a5dad863465.
[2026-Mar-19 18:10:08] [trace] [ Client] - Command open executed for 6 milliseconds with result 0
[2026-Mar-19 18:10:08] [debug] [ Client] - config
[2026-Mar-19 18:10:08] [trace] [ Client] - Command config executed for 12 milliseconds with result 0
[2026-Mar-19 18:10:08] [debug] [ Client] - enum_emu_snr
[2026-Mar-19 18:10:08] [trace] [ Client] - Command enum_emu_con_info executed for 5 milliseconds with result 0
[2026-Mar-19 18:10:08] [debug] [ Client] - connect_to_emu_with_snr
[2026-Mar-19 18:10:08] [debug] [SeggerBackend] - Logger sink registered in Segger backend logger
[2026-Mar-19 18:10:08] [debug] [  JLink] - Logger sink registered in JLink logger
[2026-Mar-19 18:10:08] [debug] [  nRF52] - open
[2026-Mar-19 18:10:08] [debug] [  nRF52] - just_check_family
[2026-Mar-19 18:10:08] [debug] [SeggerBackend] - open_dll
[2026-Mar-19 18:10:08] [debug] [SeggerBackend] - No J-Link DLL path was provided. Attempting to auto detect.
[2026-Mar-19 18:10:08] [ info] [SeggerBackend] - Load library at /Applications/SEGGER/JLink/libjlinkarm.dylib.
[2026-Mar-19 18:10:08] [ info] [SeggerBackend] - Library loaded, loading member functions.
[2026-Mar-19 18:10:08] [ info] [SeggerBackend] - Member functions succesfully loaded.
[2026-Mar-19 18:10:08] [debug] [SeggerBackend] - Set batch mode
[2026-Mar-19 18:10:08] [debug] [SeggerBackend] - dll_version
[2026-Mar-19 18:10:08] [ info] [SeggerBackend] - Segger dll version 7.94.e loaded.
[2026-Mar-19 18:10:08] [trace] [ Worker] - Command open executed for 2 milliseconds with result 0
[2026-Mar-19 18:10:08] [debug] [  nRF52] - config
[2026-Mar-19 18:10:08] [debug] [SeggerBackend] - enum_emu_snr
[2026-Mar-19 18:10:08] [trace] [ Worker] - Command config executed for 1 milliseconds with result 0
[2026-Mar-19 18:10:08] [debug] [  nRF52] - enum_emu_con_info
[2026-Mar-19 18:10:08] [debug] [SeggerBackend] - is_connected_to_emu
[2026-Mar-19 18:10:08] [debug] [SeggerBackend] - enum_emu_con_info
[2026-Mar-19 18:10:08] [debug] [SeggerBackend] - is_connected_to_emu
[2026-Mar-19 18:10:08] [trace] [ Worker] - Command enum_emu_con_info executed for 0 milliseconds with result 0
[2026-Mar-19 18:10:08] [debug] [  nRF52] - connect_to_emu_with_snr
[2026-Mar-19 18:10:08] [debug] [SeggerBackend] - is_connected_to_emu
[2026-Mar-19 18:10:08] [debug] [SeggerBackend] - connect_to_emu_with_snr
[2026-Mar-19 18:10:08] [debug] [SeggerBackend] - is_connected_to_emu
[2026-Mar-19 18:10:08] [debug] [SeggerBackend] - ---just_enum_emu_snr
[2026-Mar-19 18:10:08] [debug] [SeggerBackend] - ---just_get_num_emus
[2026-Mar-19 18:10:08] [debug] [SeggerBackend] - ---just_connect_to_emu_with_snr
[2026-Mar-19 18:10:08] [debug] [SeggerBackend] - ---just_connect_to_emu_without_snr
[2026-Mar-19 18:10:08] [debug] [SeggerBackend] - Segger logging enabled.
[2026-Mar-19 18:10:08] [trace] [  JLink] - Firmware: J-Link EDU Mini V2 compiled Feb 26 2026 08:58:01
[2026-Mar-19 18:10:08] [trace] [  JLink] - Firmware: J-Link EDU Mini V2 compiled Feb 26 2026 08:58:01
[2026-Mar-19 18:10:08] [trace] [ Client] - Command connect_to_emu_with_snr executed for 31 milliseconds with result 0
[2026-Mar-19 18:10:08] [debug] [ Client] - read_connected_emu_snr
[2026-Mar-19 18:10:08] [trace] [  JLink] - Hardware: V2.00
[2026-Mar-19 18:10:08] [trace] [  JLink] - S/N: 802007736
[2026-Mar-19 18:10:08] [trace] [  JLink] - OEM: SEGGER
[2026-Mar-19 18:10:08] [trace] [  JLink] - Feature(s): FlashBP, GDB
[2026-Mar-19 18:10:08] [trace] [  JLink] - Bootloader: 2024 Aug 29
[2026-Mar-19 18:10:08] [trace] [  JLink] - USB speed mode: Full speed (12 MBit/s)
[2026-Mar-19 18:10:08] [trace] [  JLink] - TELNET listener socket opened on port 19021
[2026-Mar-19 18:10:08] [trace] [  JLink] - WEBSRV WEBSRV_Init(): Starting webserver thread(s)
[2026-Mar-19 18:10:08] [trace] [  JLink] - WEBSRV Failed to put socket into listener state (port 19080)
[2026-Mar-19 18:10:08] [trace] [  JLink] - WEBSRV Webserver running on local port 19081
[2026-Mar-19 18:10:08] [trace] [ Client] - Command read_connected_emu_snr executed for 5 milliseconds with result 0
[2026-Mar-19 18:10:08] [trace] [  JLink] - Looking for J-Link GUI Server exe at: /Applications/SEGGER/JLink_V794e/JLinkGUIServerExe 
[2026-Mar-19 18:10:08] [trace] [  JLink] - Forking J-Link GUI Server: /Applications/SEGGER/JLink_V794e/JLinkGUIServerExe 
[2026-Mar-19 18:10:08] [trace] [  JLink] - J-Link GUI Server info: "J-Link GUI server V7.94e " 
[2026-Mar-19 18:10:08] [debug] [ Client] - read_device_info
[2026-Mar-19 18:10:08] [trace] [  JLink] - - 18.028ms returns "O.K."  
[2026-Mar-19 18:10:08] [trace] [  JLink] - JLINK_HasError()  
[2026-Mar-19 18:10:08] [trace] [  JLink] - JLINK_Lock()  
[2026-Mar-19 18:10:08] [trace] [  JLink] - JLINK_ExecCommand("SetRestartOnClose = 0", ...).   
[2026-Mar-19 18:10:08] [trace] [  JLink] - - 0.002ms returns 0x01  
[2026-Mar-19 18:10:08] [trace] [  JLink] - JLINK_HasError()  
[2026-Mar-19 18:10:08] [trace] [  JLink] - JLINK_ExecCommand("DisableFlashDL", ...).   
[2026-Mar-19 18:10:08] [trace] [  JLink] - - 0.001ms returns 0x00  
[2026-Mar-19 18:10:08] [trace] [  JLink] - JLINK_HasError()  
[2026-Mar-19 18:10:08] [trace] [  JLink] - JLINK_ExecCommand("ExcludeFlashCacheRange 0x0-0xFFFFFFFF", ...).   
[2026-Mar-19 18:10:08] [trace] [  JLink] - - 0.002ms returns 0x00  
[2026-Mar-19 18:10:08] [trace] [  JLink] - JLINK_HasError()  
[2026-Mar-19 18:10:08] [trace] [  JLink] - JLINK_SetHookUnsecureDialog  
[2026-Mar-19 18:10:08] [trace] [  JLink] - JLINK_SetHookUnsecureDialog(...)
[2026-Mar-19 18:10:08] [trace] [  JLink] - - 0.003ms returns 0  
[2026-Mar-19 18:10:08] [trace] [  JLink] - JLINK_HasError()  
[2026-Mar-19 18:10:08] [trace] [  JLink] - JLINK_TIF_Select(JLINKARM_TIF_SWD)  
[2026-Mar-19 18:10:08] [trace] [  JLink] - - 1.886ms returns 0x00  
[2026-Mar-19 18:10:08] [trace] [  JLink] - JLINK_HasError()  
[2026-Mar-19 18:10:08] [trace] [  JLink] - JLINK_GetSpeedInfo()  
[2026-Mar-19 18:10:08] [trace] [  JLink] - 96000000 Hz / n, n >= 24
[2026-Mar-19 18:10:08] [trace] [  JLink] - - 0.003ms  
[2026-Mar-19 18:10:08] [trace] [  JLink] - JLINK_HasError()  
[2026-Mar-19 18:10:08] [debug] [SeggerBackend] - Connected emulator supports SWD speeds up to 4000kHz
[2026-Mar-19 18:10:08] [trace] [  JLink] - JLINK_SetSpeed(2000)  
[2026-Mar-19 18:10:08] [trace] [  JLink] - - 0.119ms  
[2026-Mar-19 18:10:08] [trace] [  JLink] - JLINK_HasError()  
[2026-Mar-19 18:10:08] [trace] [  JLink] - JLINK_GetSpeed()  
[2026-Mar-19 18:10:08] [trace] [  JLink] - - 0.001ms returns 2000  
[2026-Mar-19 18:10:08] [trace] [  JLink] - JLINK_HasError()  
[2026-Mar-19 18:10:08] [debug] [SeggerBackend] - SWD clock set to 2000kHz
[2026-Mar-19 18:10:08] [trace] [  JLink] - JLINK_GetSN()  
[2026-Mar-19 18:10:08] [trace] [  JLink] - - 0.001ms returns 802007736  
[2026-Mar-19 18:10:08] [trace] [  JLink] - JLINK_HasError()  
[2026-Mar-19 18:10:08] [trace] [  JLink] - - 0.001ms  
[2026-Mar-19 18:10:08] [debug] [  nRF52] - read_device_family
[2026-Mar-19 18:10:08] [trace] [ Worker] - Command connect_to_emu_with_snr executed for 27 milliseconds with result 0
[2026-Mar-19 18:10:08] [debug] [  nRF52] - read_connected_emu_snr
[2026-Mar-19 18:10:08] [debug] [SeggerBackend] - is_connected_to_emu
[2026-Mar-19 18:10:08] [trace] [  JLink] - JLINK_IsOpen()  
[2026-Mar-19 18:10:08] [trace] [  JLink] - - 0.010ms returns 0x01  
[2026-Mar-19 18:10:08] [trace] [  JLink] - JLINK_HasError()  
[2026-Mar-19 18:10:08] [trace] [  JLink] - JLINK_Lock()  
[2026-Mar-19 18:10:08] [debug] [SeggerBackend] - read_connected_emu_snr
[2026-Mar-19 18:10:08] [trace] [  JLink] - - 0.005ms  
[2026-Mar-19 18:10:08] [trace] [ Worker] - Command read_connected_emu_snr executed for 0 milliseconds with result 0
[2026-Mar-19 18:10:08] [debug] [  nRF52] - read_device_info
[2026-Mar-19 18:10:08] [debug] [SeggerBackend] - is_connected_to_emu
[2026-Mar-19 18:10:08] [trace] [  JLink] - JLINK_IsOpen()  
[2026-Mar-19 18:10:08] [trace] [  JLink] - - 0.008ms returns 0x01  
[2026-Mar-19 18:10:08] [trace] [  JLink] - JLINK_HasError()  
[2026-Mar-19 18:10:08] [trace] [  JLink] - JLINK_Lock()  
[2026-Mar-19 18:10:08] [debug] [  nRF52] - Just_read_device_version
[2026-Mar-19 18:10:08] [debug] [  nRF52] - Just_readback_status
[2026-Mar-19 18:10:08] [debug] [  nRF52] - Just_is_ctrl_ap_available
[2026-Mar-19 18:10:08] [debug] [SeggerBackend] - read_access_port_register
[2026-Mar-19 18:10:08] [debug] [SeggerBackend] - ---just_read_access_port_register
[2026-Mar-19 18:10:08] [debug] [SeggerBackend] - coresight_configure
[2026-Mar-19 18:10:08] [trace] [  JLink] - JLINK_GetHWStatus(...)  
[2026-Mar-19 18:10:08] [trace] [  JLink] - - 0.206ms returns 0  
[2026-Mar-19 18:10:08] [trace] [  JLink] - JLINK_HasError()  
[2026-Mar-19 18:10:08] [trace] [  JLink] - JLINK_CORESIGHT_Configure()  
[2026-Mar-19 18:10:08] [trace] [  JLink] - - 0.764ms returns 0  
[2026-Mar-19 18:10:08] [trace] [  JLink] - JLINK_HasError()  
[2026-Mar-19 18:10:08] [debug] [SeggerBackend] - read_debug_port_idr
[2026-Mar-19 18:10:08] [debug] [SeggerBackend] - read_debug_port_register
[2026-Mar-19 18:10:08] [debug] [SeggerBackend] - ---just_read_debug_port_register
[2026-Mar-19 18:10:08] [debug] [SeggerBackend] - ---just_select_debug_port_register
[2026-Mar-19 18:10:08] [debug] [SeggerBackend] - Select AP 255, DP Bank 0, AP Bank 255
[2026-Mar-19 18:10:08] [trace] [  JLink] - JLINK_CORESIGHT_WriteAPDPReg(DP reg 0x02, 0x00000000)  
[2026-Mar-19 18:10:08] [trace] [  JLink] - - 0.223ms returns 0  
[2026-Mar-19 18:10:08] [trace] [  JLink] - JLINK_HasError()  
[2026-Mar-19 18:10:08] [trace] [  JLink] - JLINK_CORESIGHT_ReadAPDPReg(DP reg 0x00)  
[2026-Mar-19 18:10:08] [trace] [  JLink] - Value=0x2BA01477
[2026-Mar-19 18:10:08] [trace] [  JLink] - - 0.229ms returns 0  
[2026-Mar-19 18:10:08] [trace] [  JLink] - JLINK_HasError()  
[2026-Mar-19 18:10:08] [debug] [SeggerBackend] - ---just_is_debug_region_powered
[2026-Mar-19 18:10:08] [debug] [SeggerBackend] - ---just_read_debug_port_register
[2026-Mar-19 18:10:08] [debug] [SeggerBackend] - ---just_select_debug_port_register
[2026-Mar-19 18:10:08] [trace] [  JLink] - JLINK_CORESIGHT_ReadAPDPReg(DP reg 0x01)  
[2026-Mar-19 18:10:08] [trace] [  JLink] - Value=0xF0000040
[2026-Mar-19 18:10:08] [trace] [  JLink] - - 0.218ms returns 0  
[2026-Mar-19 18:10:08] [trace] [  JLink] - JLINK_HasError()  
[2026-Mar-19 18:10:08] [debug] [SeggerBackend] - ---just_select_access_port_register
[2026-Mar-19 18:10:08] [debug] [SeggerBackend] - Select AP 1, DP Bank 0, AP Bank 15
[2026-Mar-19 18:10:08] [trace] [  JLink] - JLINK_CORESIGHT_WriteAPDPReg(DP reg 0x02, 0x010000F0)  
[2026-Mar-19 18:10:08] [trace] [  JLink] - - 0.224ms returns 0  
[2026-Mar-19 18:10:08] [trace] [  JLink] - JLINK_HasError()  
[2026-Mar-19 18:10:08] [trace] [  JLink] - JLINK_CORESIGHT_ReadAPDPReg(AP reg 0x03)  
[2026-Mar-19 18:10:08] [trace] [  JLink] - Value=0x02880000
[2026-Mar-19 18:10:08] [trace] [  JLink] - - 0.285ms returns 0  
[2026-Mar-19 18:10:08] [trace] [  JLink] - JLINK_HasError()  
[2026-Mar-19 18:10:08] [debug] [SeggerBackend] - read_access_port_register
[2026-Mar-19 18:10:08] [debug] [SeggerBackend] - ---just_read_access_port_register
[2026-Mar-19 18:10:08] [debug] [SeggerBackend] - ---just_select_access_port_register
[2026-Mar-19 18:10:08] [trace] [  JLink] - JLINK_CORESIGHT_ReadAPDPReg(AP reg 0x03)  
[2026-Mar-19 18:10:08] [trace] [  JLink] - Value=0x02880000
[2026-Mar-19 18:10:08] [trace] [  JLink] - - 0.253ms returns 0  
[2026-Mar-19 18:10:08] [trace] [  JLink] - JLINK_HasError()  
[2026-Mar-19 18:10:08] [debug] [SeggerBackend] - read_access_port_register
[2026-Mar-19 18:10:08] [debug] [SeggerBackend] - ---just_read_access_port_register
[2026-Mar-19 18:10:08] [debug] [SeggerBackend] - ---just_select_access_port_register
[2026-Mar-19 18:10:08] [trace] [  JLink] - JLINK_CORESIGHT_ReadAPDPReg(AP reg 0x03)  
[2026-Mar-19 18:10:08] [trace] [  JLink] - Value=0x02880000
[2026-Mar-19 18:10:08] [trace] [  JLink] - - 0.258ms returns 0  
[2026-Mar-19 18:10:08] [trace] [  JLink] - JLINK_HasError()  
[2026-Mar-19 18:10:08] [debug] [SeggerBackend] - read_access_port_register
[2026-Mar-19 18:10:08] [debug] [SeggerBackend] - ---just_read_access_port_register
[2026-Mar-19 18:10:08] [debug] [SeggerBackend] - ---just_select_access_port_register
[2026-Mar-19 18:10:08] [trace] [  JLink] - JLINK_CORESIGHT_ReadAPDPReg(AP reg 0x03)  
[2026-Mar-19 18:10:08] [trace] [  JLink] - Value=0x02880000
[2026-Mar-19 18:10:08] [trace] [  JLink] - - 0.263ms returns 0  
[2026-Mar-19 18:10:08] [trace] [  JLink] - JLINK_HasError()  
[2026-Mar-19 18:10:08] [debug] [SeggerBackend] - read_access_port_register
[2026-Mar-19 18:10:08] [debug] [SeggerBackend] - ---just_read_access_port_register
[2026-Mar-19 18:10:08] [debug] [SeggerBackend] - ---just_select_access_port_register
[2026-Mar-19 18:10:08] [debug] [SeggerBackend] - Select AP 1, DP Bank 0, AP Bank 0
[2026-Mar-19 18:10:08] [trace] [  JLink] - JLINK_CORESIGHT_WriteAPDPReg(DP reg 0x02, 0x01000000)  
[2026-Mar-19 18:10:08] [trace] [  JLink] - - 0.237ms returns 0  
[2026-Mar-19 18:10:08] [trace] [  JLink] - JLINK_HasError()  
[2026-Mar-19 18:10:08] [trace] [  JLink] - JLINK_CORESIGHT_ReadAPDPReg(AP reg 0x03)  
[2026-Mar-19 18:10:08] [trace] [  JLink] - Value=0x00000001
[2026-Mar-19 18:10:08] [trace] [  JLink] - - 0.266ms returns 0  
[2026-Mar-19 18:10:08] [trace] [  JLink] - JLINK_HasError()  
[2026-Mar-19 18:10:08] [debug] [SeggerBackend] - read_access_port_register
[2026-Mar-19 18:10:08] [debug] [SeggerBackend] - ---just_read_access_port_register
[2026-Mar-19 18:10:08] [debug] [SeggerBackend] - ---just_select_access_port_register
[2026-Mar-19 18:10:08] [trace] [  JLink] - JLINK_CORESIGHT_ReadAPDPReg(AP reg 0x03)  
[2026-Mar-19 18:10:08] [trace] [  JLink] - Value=0x00000001
[2026-Mar-19 18:10:08] [trace] [  JLink] - - 0.261ms returns 0  
[2026-Mar-19 18:10:08] [trace] [  JLink] - JLINK_HasError()  
[2026-Mar-19 18:10:08] [debug] [SeggerBackend] - read_access_port_register
[2026-Mar-19 18:10:08] [debug] [SeggerBackend] - ---just_read_access_port_register
[2026-Mar-19 18:10:08] [debug] [SeggerBackend] - ---just_select_access_port_register
[2026-Mar-19 18:10:08] [trace] [  JLink] - JLINK_CORESIGHT_ReadAPDPReg(AP reg 0x03)  
[2026-Mar-19 18:10:08] [trace] [  JLink] - Value=0x00000001
[2026-Mar-19 18:10:08] [trace] [  JLink] - - 0.272ms returns 0  
[2026-Mar-19 18:10:08] [trace] [  JLink] - JLINK_HasError()  
[2026-Mar-19 18:10:08] [debug] [SeggerBackend] - read_access_port_register
[2026-Mar-19 18:10:08] [debug] [SeggerBackend] - ---just_read_access_port_register
[2026-Mar-19 18:10:08] [debug] [SeggerBackend] - ---just_select_access_port_register
[2026-Mar-19 18:10:08] [trace] [  JLink] - JLINK_CORESIGHT_ReadAPDPReg(AP reg 0x03)  
[2026-Mar-19 18:10:08] [trace] [  JLink] - Value=0x00000001
[2026-Mar-19 18:10:08] [trace] [  JLink] - - 0.298ms returns 0  
[2026-Mar-19 18:10:08] [trace] [  JLink] - JLINK_HasError()  
[2026-Mar-19 18:10:08] [ info] [  nRF52] - Protection status read as NONE
[2026-Mar-19 18:10:08] [trace] [ Client] - Command read_device_info executed for 30 milliseconds with result 0
[2026-Mar-19 18:10:08] [debug] [ Client] - read_memory_descriptors
[2026-Mar-19 18:10:08] [debug] [SeggerBackend] - read_u32
[2026-Mar-19 18:10:08] [trace] [ Client] - Command read_memory_descriptors executed for 11 milliseconds with result 0
[2026-Mar-19 18:10:08] [debug] [ Client] - read_memory_descriptors
[2026-Mar-19 18:10:08] [debug] [SeggerBackend] - ---just_connect_to_device
[2026-Mar-19 18:10:08] [debug] [SeggerBackend] - is_connected_to_device
[2026-Mar-19 18:10:08] [trace] [  JLink] - JLINK_IsConnected()  
[2026-Mar-19 18:10:08] [trace] [  JLink] - - 0.000ms returns FALSE  
[2026-Mar-19 18:10:08] [trace] [  JLink] - JLINK_HasError()  
[2026-Mar-19 18:10:08] [debug] [SeggerBackend] - ---set_coresight_ahb_ap_index
[2026-Mar-19 18:10:08] [trace] [  JLink] - JLINK_ExecCommand("CORESIGHT_SetIndexAHBAPToUse = 0", ...).   
[2026-Mar-19 18:10:08] [trace] [  JLink] - - 0.001ms returns 0x00  
[2026-Mar-19 18:10:08] [trace] [  JLink] - JLINK_HasError()  
[2026-Mar-19 18:10:08] [trace] [  JLink] - JLINK_ExecCommand("device = nRF52", ...).   
[2026-Mar-19 18:10:08] [trace] [  JLink] - Device "NRF52" selected.
[2026-Mar-19 18:10:08] [trace] [  JLink] - Device "NRF52" selected.
[2026-Mar-19 18:10:08] [trace] [  JLink] - - 0.210ms returns 0x00  
[2026-Mar-19 18:10:08] [trace] [  JLink] - JLINK_HasError()  
[2026-Mar-19 18:10:08] [trace] [  JLink] - JLINK_Connect()  
[2026-Mar-19 18:10:08] [trace] [  JLink] - InitTarget() start
[2026-Mar-19 18:10:08] [trace] [  JLink] - InitTarget() start
[2026-Mar-19 18:10:08] [trace] [  JLink] -  J-Link Script File: Executing InitTarget() 
[2026-Mar-19 18:10:08] [trace] [  JLink] - InitTarget() end - Took 2.57ms
[2026-Mar-19 18:10:08] [trace] [  JLink] - InitTarget() end - Took 2.57ms
[2026-Mar-19 18:10:08] [trace] [  JLink] - Found SW-DP with ID 0x2BA01477
[2026-Mar-19 18:10:08] [trace] [  JLink] - Found SW-DP with ID 0x2BA01477
[2026-Mar-19 18:10:08] [trace] [  JLink] - DPIDR: 0x2BA01477
[2026-Mar-19 18:10:08] [trace] [  JLink] - DPIDR: 0x2BA01477
[2026-Mar-19 18:10:08] [trace] [  JLink] - CoreSight SoC-400 or earlier
[2026-Mar-19 18:10:08] [trace] [  JLink] - CoreSight SoC-400 or earlier
[2026-Mar-19 18:10:08] [trace] [  JLink] - AP map detection skipped. Manually configured AP map found.
[2026-Mar-19 18:10:08] [trace] [  JLink] - AP map detection skipped. Manually configured AP map found.
[2026-Mar-19 18:10:08] [trace] [  JLink] - AP[0]: AHB-AP (IDR: Not set)
[2026-Mar-19 18:10:08] [trace] [  JLink] - AP[0]: AHB-AP (IDR: Not set)
[2026-Mar-19 18:10:08] [trace] [  JLink] - AP[0]: Core found
[2026-Mar-19 18:10:08] [trace] [  JLink] - AP[0]: Core found
[2026-Mar-19 18:10:08] [trace] [  JLink] - AP[0]: AHB-AP ROM base: 0xE00FF000
[2026-Mar-19 18:10:08] [trace] [  JLink] - AP[0]: AHB-AP ROM base: 0xE00FF000
[2026-Mar-19 18:10:08] [trace] [  JLink] - CPUID register: 0x410FC241. Implementer code: 0x41 (ARM)
[2026-Mar-19 18:10:08] [trace] [  JLink] - CPUID register: 0x410FC241. Implementer code: 0x41 (ARM)
[2026-Mar-19 18:10:08] [trace] [  JLink] - Found Cortex-M4 r0p1, Little endian.
[2026-Mar-19 18:10:08] [trace] [  JLink] - Found Cortex-M4 r0p1, Little endian.
[2026-Mar-19 18:10:08] [trace] [  JLink] - -- Max. mem block: 0x00002828
[2026-Mar-19 18:10:08] [trace] [  JLink] - CPU_ReadMem(4 bytes @ 0xE000EDF0)
[2026-Mar-19 18:10:08] [trace] [  JLink] - CPU_ReadMem(4 bytes @ 0xE0002000)
[2026-Mar-19 18:10:08] [trace] [  JLink] - FPUnit: 6 code (BP) slots and 2 literal slots
[2026-Mar-19 18:10:08] [trace] [  JLink] - FPUnit: 6 code (BP) slots and 2 literal slots
[2026-Mar-19 18:10:08] [trace] [  JLink] - CPU_ReadMem(4 bytes @ 0xE000EDFC)
[2026-Mar-19 18:10:08] [trace] [  JLink] - CPU_WriteMem(4 bytes @ 0xE000EDFC)
[2026-Mar-19 18:10:08] [trace] [  JLink] - CPU_ReadMem(4 bytes @ 0xE0001000)
[2026-Mar-19 18:10:08] [trace] [  JLink] - CPU_WriteMem(4 bytes @ 0xE0001000)
[2026-Mar-19 18:10:08] [trace] [  JLink] - CPU_ReadMem(4 bytes @ 0xE000ED88)
[2026-Mar-19 18:10:08] [trace] [  JLink] - CPU_WriteMem(4 bytes @ 0xE000ED88)
[2026-Mar-19 18:10:08] [trace] [  JLink] - CPU_ReadMem(4 bytes @ 0xE000ED88)
[2026-Mar-19 18:10:08] [trace] [  JLink] - CPU_WriteMem(4 bytes @ 0xE000ED88)
[2026-Mar-19 18:10:08] [trace] [  JLink] - CoreSight components:
[2026-Mar-19 18:10:08] [trace] [  JLink] - CoreSight components:
[2026-Mar-19 18:10:08] [trace] [  JLink] - ROMTbl[0] @ E00FF000
[2026-Mar-19 18:10:08] [trace] [  JLink] - ROMTbl[0] @ E00FF000
[2026-Mar-19 18:10:08] [trace] [  JLink] - CPU_ReadMem(64 bytes @ 0xE00FF000)
[2026-Mar-19 18:10:08] [trace] [  JLink] - CPU_ReadMem(32 bytes @ 0xE000EFE0)
[2026-Mar-19 18:10:08] [trace] [  JLink] - [0][0]: E000E000 CID B105E00D PID 000BB00C SCS-M7
[2026-Mar-19 18:10:08] [trace] [  JLink] - [0][0]: E000E000 CID B105E00D PID 000BB00C SCS-M7
[2026-Mar-19 18:10:08] [trace] [  JLink] - CPU_ReadMem(32 bytes @ 0xE0001FE0)
[2026-Mar-19 18:10:08] [trace] [  JLink] - [0][1]: E0001000 CID B105E00D PID 003BB002 DWT
[2026-Mar-19 18:10:08] [trace] [  JLink] - [0][1]: E0001000 CID B105E00D PID 003BB002 DWT
[2026-Mar-19 18:10:08] [trace] [  JLink] - CPU_ReadMem(32 bytes @ 0xE0002FE0)
[2026-Mar-19 18:10:08] [trace] [  JLink] - [0][2]: E0002000 CID B105E00D PID 002BB003 FPB
[2026-Mar-19 18:10:08] [trace] [  JLink] - [0][2]: E0002000 CID B105E00D PID 002BB003 FPB
[2026-Mar-19 18:10:08] [trace] [  JLink] - CPU_ReadMem(32 bytes @ 0xE0000FE0)
[2026-Mar-19 18:10:08] [trace] [  JLink] - [0][3]: E0000000 CID B105E00D PID 003BB001 ITM
[2026-Mar-19 18:10:08] [trace] [  JLink] - [0][3]: E0000000 CID B105E00D PID 003BB001 ITM
[2026-Mar-19 18:10:08] [trace] [  JLink] - CPU_ReadMem(32 bytes @ 0xE0040FE0)
[2026-Mar-19 18:10:08] [trace] [  JLink] - [0][4]: E0040000 CID B105900D PID 000BB9A1 TPIU
[2026-Mar-19 18:10:08] [trace] [  JLink] - [0][4]: E0040000 CID B105900D PID 000BB9A1 TPIU
[2026-Mar-19 18:10:08] [trace] [  JLink] - CPU_ReadMem(32 bytes @ 0xE0041FE0)
[2026-Mar-19 18:10:08] [trace] [  JLink] - [0][5]: E0041000 CID B105900D PID 000BB925 ETM
[2026-Mar-19 18:10:08] [trace] [  JLink] - [0][5]: E0041000 CID B105900D PID 000BB925 ETM
[2026-Mar-19 18:10:08] [trace] [  JLink] - - 15.669ms returns 0x00  
[2026-Mar-19 18:10:08] [trace] [  JLink] - JLINK_HasError()  
[2026-Mar-19 18:10:08] [trace] [  JLink] - JLINK_CORE_GetFound()  
[2026-Mar-19 18:10:08] [trace] [  JLink] - - 0.001ms returns 0xE0000FF  
[2026-Mar-19 18:10:08] [debug] [SeggerBackend] - ---just_read_u32
[2026-Mar-19 18:10:08] [debug] [SeggerBackend] - ---just_invalidate_cache
[2026-Mar-19 18:10:08] [trace] [  JLink] - JLINK_ExecCommand("InvalidateCache", ...).   
[2026-Mar-19 18:10:08] [trace] [  JLink] - - 0.003ms returns 0x00  
[2026-Mar-19 18:10:08] [trace] [  JLink] - JLINK_HasError()  
[2026-Mar-19 18:10:08] [trace] [  JLink] - JLINK_ReadMemU32(0x10000130, 0x1 Items)  
[2026-Mar-19 18:10:08] [trace] [  JLink] - CPU_ReadMem(4 bytes @ 0x10000130)
[2026-Mar-19 18:10:08] [trace] [  JLink] - Data:  08 00 00 00
[2026-Mar-19 18:10:08] [trace] [  JLink] - - 0.380ms returns 1 (0x1)  
[2026-Mar-19 18:10:08] [trace] [  JLink] - JLINK_HasError()  
[2026-Mar-19 18:10:08] [debug] [SeggerBackend] - read_u32
[2026-Mar-19 18:10:08] [debug] [SeggerBackend] - ---just_connect_to_device
[2026-Mar-19 18:10:08] [debug] [SeggerBackend] - is_connected_to_device
[2026-Mar-19 18:10:08] [debug] [SeggerBackend] - ---just_read_u32
[2026-Mar-19 18:10:08] [debug] [SeggerBackend] - ---just_invalidate_cache
[2026-Mar-19 18:10:08] [trace] [  JLink] - JLINK_ExecCommand("InvalidateCache", ...).   
[2026-Mar-19 18:10:08] [trace] [  JLink] - - 0.001ms returns 0x00  
[2026-Mar-19 18:10:08] [trace] [  JLink] - JLINK_HasError()  
[2026-Mar-19 18:10:08] [trace] [  JLink] - JLINK_ReadMemU32(0x10000134, 0x1 Items)  
[2026-Mar-19 18:10:08] [trace] [  JLink] - CPU_ReadMem(4 bytes @ 0x10000134)
[2026-Mar-19 18:10:08] [trace] [  JLink] - Data:  03 00 00 00
[2026-Mar-19 18:10:08] [trace] [  JLink] - - 0.406ms returns 1 (0x1)  
[2026-Mar-19 18:10:08] [trace] [  JLink] - JLINK_HasError()  
[2026-Mar-19 18:10:08] [debug] [  nRF52] - Just_decode_device_version
[2026-Mar-19 18:10:08] [debug] [  nRF52] - Device identified as NRF52840_xxAA_REV2
[2026-Mar-19 18:10:08] [trace] [  JLink] - - 0.025ms  
[2026-Mar-19 18:10:08] [trace] [ Worker] - Command read_device_info executed for 21 milliseconds with result 0
[2026-Mar-19 18:10:08] [debug] [  nRF52] - read_memory_descriptors
[2026-Mar-19 18:10:08] [debug] [SeggerBackend] - is_connected_to_emu
[2026-Mar-19 18:10:08] [trace] [  JLink] - JLINK_IsOpen()  
[2026-Mar-19 18:10:08] [trace] [  JLink] - - 0.002ms returns 0x01  
[2026-Mar-19 18:10:08] [trace] [  JLink] - JLINK_HasError()  
[2026-Mar-19 18:10:08] [trace] [  JLink] - JLINK_Lock()  
[2026-Mar-19 18:10:08] [debug] [  nRF52] - Just_read_memory_descriptors
[2026-Mar-19 18:10:08] [debug] [  nRF52] - Just_readback_status
[2026-Mar-19 18:10:08] [debug] [  nRF52] - Just_is_ctrl_ap_available
[2026-Mar-19 18:10:08] [debug] [SeggerBackend] - read_access_port_register
[2026-Mar-19 18:10:08] [debug] [SeggerBackend] - ---just_read_access_port_register
[2026-Mar-19 18:10:08] [debug] [SeggerBackend] - ---just_is_debug_region_powered
[2026-Mar-19 18:10:08] [debug] [SeggerBackend] - ---just_read_debug_port_register
[2026-Mar-19 18:10:08] [debug] [SeggerBackend] - ---just_select_debug_port_register
[2026-Mar-19 18:10:08] [debug] [SeggerBackend] - Select AP 255, DP Bank 0, AP Bank 255
[2026-Mar-19 18:10:08] [trace] [  JLink] - JLINK_CORESIGHT_WriteAPDPReg(DP reg 0x02, 0x00000000)  
[2026-Mar-19 18:10:08] [trace] [  JLink] - - 0.283ms returns 0  
[2026-Mar-19 18:10:08] [trace] [  JLink] - JLINK_HasError()  
[2026-Mar-19 18:10:08] [trace] [  JLink] - JLINK_CORESIGHT_ReadAPDPReg(DP reg 0x01)  
[2026-Mar-19 18:10:08] [trace] [  JLink] - Value=0xF0000040
[2026-Mar-19 18:10:08] [trace] [  JLink] - - 0.238ms returns 0  
[2026-Mar-19 18:10:08] [trace] [  JLink] - JLINK_HasError()  
[2026-Mar-19 18:10:08] [debug] [SeggerBackend] - ---just_select_access_port_register
[2026-Mar-19 18:10:08] [debug] [SeggerBackend] - Select AP 1, DP Bank 0, AP Bank 15
[2026-Mar-19 18:10:08] [trace] [  JLink] - JLINK_CORESIGHT_WriteAPDPReg(DP reg 0x02, 0x010000F0)  
[2026-Mar-19 18:10:08] [trace] [  JLink] - - 0.231ms returns 0  
[2026-Mar-19 18:10:08] [trace] [  JLink] - JLINK_HasError()  
[2026-Mar-19 18:10:08] [trace] [  JLink] - JLINK_CORESIGHT_ReadAPDPReg(AP reg 0x03)  
[2026-Mar-19 18:10:08] [trace] [  JLink] - Value=0x02880000
[2026-Mar-19 18:10:08] [trace] [  JLink] - - 0.253ms returns 0  
[2026-Mar-19 18:10:08] [trace] [  JLink] - JLINK_HasError()  
[2026-Mar-19 18:10:08] [debug] [SeggerBackend] - read_access_port_register
[2026-Mar-19 18:10:08] [debug] [SeggerBackend] - ---just_read_access_port_register
[2026-Mar-19 18:10:08] [debug] [SeggerBackend] - ---just_select_access_port_register
[2026-Mar-19 18:10:08] [trace] [  JLink] - JLINK_CORESIGHT_ReadAPDPReg(AP reg 0x03)  
[2026-Mar-19 18:10:08] [trace] [  JLink] - Value=0x02880000
[2026-Mar-19 18:10:08] [trace] [  JLink] - - 0.265ms returns 0  
[2026-Mar-19 18:10:08] [trace] [  JLink] - JLINK_HasError()  
[2026-Mar-19 18:10:08] [debug] [SeggerBackend] - read_access_port_register
[2026-Mar-19 18:10:08] [debug] [SeggerBackend] - ---just_read_access_port_register
[2026-Mar-19 18:10:08] [debug] [SeggerBackend] - ---just_select_access_port_register
[2026-Mar-19 18:10:08] [trace] [  JLink] - JLINK_CORESIGHT_ReadAPDPReg(AP reg 0x03)  
[2026-Mar-19 18:10:08] [trace] [  JLink] - Value=0x02880000
[2026-Mar-19 18:10:08] [trace] [  JLink] - - 0.264ms returns 0  
[2026-Mar-19 18:10:08] [trace] [  JLink] - JLINK_HasError()  
[2026-Mar-19 18:10:08] [debug] [SeggerBackend] - read_access_port_register
[2026-Mar-19 18:10:08] [debug] [SeggerBackend] - ---just_read_access_port_register
[2026-Mar-19 18:10:08] [debug] [SeggerBackend] - ---just_select_access_port_register
[2026-Mar-19 18:10:08] [trace] [  JLink] - JLINK_CORESIGHT_ReadAPDPReg(AP reg 0x03)  
[2026-Mar-19 18:10:08] [trace] [  JLink] - Value=0x02880000
[2026-Mar-19 18:10:08] [trace] [  JLink] - - 0.289ms returns 0  
[2026-Mar-19 18:10:08] [trace] [  JLink] - JLINK_HasError()  
[2026-Mar-19 18:10:08] [debug] [SeggerBackend] - read_access_port_register
[2026-Mar-19 18:10:08] [debug] [SeggerBackend] - ---just_read_access_port_register
[2026-Mar-19 18:10:08] [debug] [SeggerBackend] - ---just_select_access_port_register
[2026-Mar-19 18:10:08] [debug] [SeggerBackend] - Select AP 1, DP Bank 0, AP Bank 0
[2026-Mar-19 18:10:08] [trace] [  JLink] - JLINK_CORESIGHT_WriteAPDPReg(DP reg 0x02, 0x01000000)  
[2026-Mar-19 18:10:08] [trace] [  JLink] - - 0.227ms returns 0  
[2026-Mar-19 18:10:08] [trace] [  JLink] - JLINK_HasError()  
[2026-Mar-19 18:10:08] [trace] [  JLink] - JLINK_CORESIGHT_ReadAPDPReg(AP reg 0x03)  
[2026-Mar-19 18:10:08] [trace] [  JLink] - Value=0x00000001
[2026-Mar-19 18:10:08] [trace] [  JLink] - - 0.258ms returns 0  
[2026-Mar-19 18:10:08] [trace] [  JLink] - JLINK_HasError()  
[2026-Mar-19 18:10:08] [debug] [SeggerBackend] - read_access_port_register
[2026-Mar-19 18:10:08] [debug] [SeggerBackend] - ---just_read_access_port_register
[2026-Mar-19 18:10:08] [debug] [SeggerBackend] - ---just_select_access_port_register
[2026-Mar-19 18:10:08] [trace] [  JLink] - JLINK_CORESIGHT_ReadAPDPReg(AP reg 0x03)  
[2026-Mar-19 18:10:08] [trace] [  JLink] - Value=0x00000001
[2026-Mar-19 18:10:08] [trace] [  JLink] - - 0.263ms returns 0  
[2026-Mar-19 18:10:08] [trace] [  JLink] - JLINK_HasError()  
[2026-Mar-19 18:10:08] [debug] [SeggerBackend] - read_access_port_register
[2026-Mar-19 18:10:08] [debug] [SeggerBackend] - ---just_read_access_port_register
[2026-Mar-19 18:10:08] [debug] [SeggerBackend] - ---just_select_access_port_register
[2026-Mar-19 18:10:08] [trace] [  JLink] - JLINK_CORESIGHT_ReadAPDPReg(AP reg 0x03)  
[2026-Mar-19 18:10:08] [trace] [  JLink] - Value=0x00000001
[2026-Mar-19 18:10:08] [trace] [  JLink] - - 0.284ms returns 0  
[2026-Mar-19 18:10:08] [trace] [  JLink] - JLINK_HasError()  
[2026-Mar-19 18:10:08] [debug] [SeggerBackend] - read_access_port_register
[2026-Mar-19 18:10:08] [debug] [SeggerBackend] - ---just_read_access_port_register
[2026-Mar-19 18:10:08] [debug] [SeggerBackend] - ---just_select_access_port_register
[2026-Mar-19 18:10:08] [trace] [  JLink] - JLINK_CORESIGHT_ReadAPDPReg(AP reg 0x03)  
[2026-Mar-19 18:10:08] [trace] [  JLink] - Value=0x00000001
[2026-Mar-19 18:10:08] [trace] [  JLink] - - 0.260ms returns 0  
[2026-Mar-19 18:10:08] [trace] [  JLink] - JLINK_HasError()  
[2026-Mar-19 18:10:08] [ info] [  nRF52] - Protection status read as NONE
[2026-Mar-19 18:10:08] [debug] [  nRF52] - update_device_memory_list
[2026-Mar-19 18:10:08] [debug] [  nRF52] - Just_read_device_version
[2026-Mar-19 18:10:08] [debug] [  nRF52] - Just_readback_status
[2026-Mar-19 18:10:08] [debug] [  nRF52] - Just_is_ctrl_ap_available
[2026-Mar-19 18:10:08] [debug] [SeggerBackend] - read_access_port_register
[2026-Mar-19 18:10:08] [debug] [SeggerBackend] - ---just_read_access_port_register
[2026-Mar-19 18:10:08] [debug] [SeggerBackend] - ---just_select_access_port_register
[2026-Mar-19 18:10:08] [debug] [SeggerBackend] - Select AP 1, DP Bank 0, AP Bank 15
[2026-Mar-19 18:10:08] [trace] [  JLink] - JLINK_CORESIGHT_WriteAPDPReg(DP reg 0x02, 0x010000F0)  
[2026-Mar-19 18:10:08] [trace] [ Client] - Command read_memory_descriptors executed for 18 milliseconds with result 0
[2026-Mar-19 18:10:08] [debug] [ Client] - read_page_sizes
[2026-Mar-19 18:10:08] [trace] [  JLink] - - 0.234ms returns 0  
[2026-Mar-19 18:10:08] [trace] [ Client] - Command read_page_sizes executed for 12 milliseconds with result 0
[2026-Mar-19 18:10:08] [debug] [ Client] - read_page_sizes
[2026-Mar-19 18:10:08] [trace] [  JLink] - JLINK_HasError()  
[2026-Mar-19 18:10:08] [trace] [  JLink] - JLINK_CORESIGHT_ReadAPDPReg(AP reg 0x03)  
[2026-Mar-19 18:10:08] [trace] [  JLink] - Value=0x02880000
[2026-Mar-19 18:10:08] [trace] [  JLink] - - 0.260ms returns 0  
[2026-Mar-19 18:10:08] [trace] [  JLink] - JLINK_HasError()  
[2026-Mar-19 18:10:08] [debug] [SeggerBackend] - read_access_port_register
[2026-Mar-19 18:10:08] [debug] [SeggerBackend] - ---just_read_access_port_register
[2026-Mar-19 18:10:08] [debug] [SeggerBackend] - ---just_select_access_port_register
[2026-Mar-19 18:10:08] [trace] [  JLink] - JLINK_CORESIGHT_ReadAPDPReg(AP reg 0x03)  
[2026-Mar-19 18:10:08] [trace] [  JLink] - Value=0x02880000
[2026-Mar-19 18:10:08] [trace] [  JLink] - - 0.312ms returns 0  
[2026-Mar-19 18:10:08] [trace] [  JLink] - JLINK_HasError()  
[2026-Mar-19 18:10:08] [debug] [SeggerBackend] - read_access_port_register
[2026-Mar-19 18:10:08] [debug] [SeggerBackend] - ---just_read_access_port_register
[2026-Mar-19 18:10:08] [debug] [SeggerBackend] - ---just_select_access_port_register
[2026-Mar-19 18:10:08] [trace] [  JLink] - JLINK_CORESIGHT_ReadAPDPReg(AP reg 0x03)  
[2026-Mar-19 18:10:08] [trace] [  JLink] - Value=0x02880000
[2026-Mar-19 18:10:08] [trace] [  JLink] - - 0.261ms returns 0  
[2026-Mar-19 18:10:08] [trace] [  JLink] - JLINK_HasError()  
[2026-Mar-19 18:10:08] [debug] [SeggerBackend] - read_access_port_register
[2026-Mar-19 18:10:08] [debug] [SeggerBackend] - ---just_read_access_port_register
[2026-Mar-19 18:10:08] [debug] [SeggerBackend] - ---just_select_access_port_register
[2026-Mar-19 18:10:08] [trace] [  JLink] - JLINK_CORESIGHT_ReadAPDPReg(AP reg 0x03)  
[2026-Mar-19 18:10:08] [trace] [  JLink] - Value=0x02880000
[2026-Mar-19 18:10:08] [trace] [  JLink] - - 0.265ms returns 0  
[2026-Mar-19 18:10:08] [trace] [  JLink] - JLINK_HasError()  
[2026-Mar-19 18:10:08] [debug] [SeggerBackend] - read_access_port_register
[2026-Mar-19 18:10:08] [debug] [SeggerBackend] - ---just_read_access_port_register
[2026-Mar-19 18:10:08] [debug] [SeggerBackend] - ---just_select_access_port_register
[2026-Mar-19 18:10:08] [debug] [SeggerBackend] - Select AP 1, DP Bank 0, AP Bank 0
[2026-Mar-19 18:10:08] [trace] [  JLink] - JLINK_CORESIGHT_WriteAPDPReg(DP reg 0x02, 0x01000000)  
[2026-Mar-19 18:10:08] [trace] [  JLink] - - 0.304ms returns 0  
[2026-Mar-19 18:10:08] [trace] [  JLink] - JLINK_HasError()  
[2026-Mar-19 18:10:08] [trace] [  JLink] - JLINK_CORESIGHT_ReadAPDPReg(AP reg 0x03)  
[2026-Mar-19 18:10:08] [trace] [  JLink] - Value=0x00000001
[2026-Mar-19 18:10:08] [trace] [  JLink] - - 0.270ms returns 0  
[2026-Mar-19 18:10:08] [trace] [  JLink] - JLINK_HasError()  
[2026-Mar-19 18:10:08] [debug] [SeggerBackend] - read_access_port_register
[2026-Mar-19 18:10:08] [debug] [SeggerBackend] - ---just_read_access_port_register
[2026-Mar-19 18:10:08] [debug] [SeggerBackend] - ---just_select_access_port_register
[2026-Mar-19 18:10:08] [trace] [  JLink] - JLINK_CORESIGHT_ReadAPDPReg(AP reg 0x03)  
[2026-Mar-19 18:10:08] [trace] [  JLink] - Value=0x00000001
[2026-Mar-19 18:10:08] [trace] [  JLink] - - 0.265ms returns 0  
[2026-Mar-19 18:10:08] [trace] [  JLink] - JLINK_HasError()  
[2026-Mar-19 18:10:08] [debug] [SeggerBackend] - read_access_port_register
[2026-Mar-19 18:10:08] [debug] [SeggerBackend] - ---just_read_access_port_register
[2026-Mar-19 18:10:08] [debug] [SeggerBackend] - ---just_select_access_port_register
[2026-Mar-19 18:10:08] [trace] [  JLink] - JLINK_CORESIGHT_ReadAPDPReg(AP reg 0x03)  
[2026-Mar-19 18:10:08] [trace] [  JLink] - Value=0x00000001
[2026-Mar-19 18:10:08] [trace] [  JLink] - - 0.264ms returns 0  
[2026-Mar-19 18:10:08] [trace] [  JLink] - JLINK_HasError()  
[2026-Mar-19 18:10:08] [debug] [SeggerBackend] - read_access_port_register
[2026-Mar-19 18:10:08] [debug] [SeggerBackend] - ---just_read_access_port_register
[2026-Mar-19 18:10:08] [debug] [SeggerBackend] - ---just_select_access_port_register
[2026-Mar-19 18:10:08] [trace] [  JLink] - JLINK_CORESIGHT_ReadAPDPReg(AP reg 0x03)  
[2026-Mar-19 18:10:08] [trace] [  JLink] - Value=0x00000001
[2026-Mar-19 18:10:08] [trace] [  JLink] - - 0.267ms returns 0  
[2026-Mar-19 18:10:08] [trace] [  JLink] - JLINK_HasError()  
[2026-Mar-19 18:10:08] [ info] [  nRF52] - Protection status read as NONE
[2026-Mar-19 18:10:08] [debug] [SeggerBackend] - read_u32
[2026-Mar-19 18:10:08] [debug] [SeggerBackend] - ---just_connect_to_device
[2026-Mar-19 18:10:08] [debug] [SeggerBackend] - is_connected_to_device
[2026-Mar-19 18:10:08] [trace] [  JLink] - JLINK_IsConnected()  
[2026-Mar-19 18:10:08] [trace] [  JLink] - - 0.001ms returns TRUE  
[2026-Mar-19 18:10:08] [trace] [  JLink] - JLINK_HasError()  
[2026-Mar-19 18:10:08] [debug] [SeggerBackend] - ---just_read_u32
[2026-Mar-19 18:10:08] [debug] [SeggerBackend] - ---just_invalidate_cache
[2026-Mar-19 18:10:08] [trace] [  JLink] - JLINK_ExecCommand("InvalidateCache", ...).   
[2026-Mar-19 18:10:08] [trace] [  JLink] - - 0.002ms returns 0x00  
[2026-Mar-19 18:10:08] [trace] [  JLink] - JLINK_HasError()  
[2026-Mar-19 18:10:08] [trace] [  JLink] - JLINK_ReadMemU32(0x10000130, 0x1 Items)  
[2026-Mar-19 18:10:08] [trace] [  JLink] - CPU_ReadMem(4 bytes @ 0x10000130)
[2026-Mar-19 18:10:08] [trace] [  JLink] - Data:  08 00 00 00
[2026-Mar-19 18:10:08] [trace] [  JLink] - - 0.366ms returns 1 (0x1)  
[2026-Mar-19 18:10:08] [trace] [  JLink] - JLINK_HasError()  
[2026-Mar-19 18:10:08] [debug] [SeggerBackend] - read_u32
[2026-Mar-19 18:10:08] [debug] [SeggerBackend] - ---just_connect_to_device
[2026-Mar-19 18:10:08] [debug] [SeggerBackend] - is_connected_to_device
[2026-Mar-19 18:10:08] [debug] [SeggerBackend] - ---just_read_u32
[2026-Mar-19 18:10:08] [debug] [SeggerBackend] - ---just_invalidate_cache
[2026-Mar-19 18:10:08] [trace] [  JLink] - JLINK_ExecCommand("InvalidateCache", ...).   
[2026-Mar-19 18:10:08] [trace] [  JLink] - - 0.001ms returns 0x00  
[2026-Mar-19 18:10:08] [trace] [  JLink] - JLINK_HasError()  
[2026-Mar-19 18:10:08] [trace] [  JLink] - JLINK_ReadMemU32(0x10000134, 0x1 Items)  
[2026-Mar-19 18:10:08] [trace] [  JLink] - CPU_ReadMem(4 bytes @ 0x10000134)
[2026-Mar-19 18:10:08] [trace] [  JLink] - Data:  03 00 00 00
[2026-Mar-19 18:10:08] [trace] [  JLink] - - 0.366ms returns 1 (0x1)  
[2026-Mar-19 18:10:08] [trace] [  JLink] - JLINK_HasError()  
[2026-Mar-19 18:10:08] [debug] [  nRF52] - Just_decode_device_version
[2026-Mar-19 18:10:08] [debug] [  nRF52] - Device identified as NRF52840_xxAA_REV2
[2026-Mar-19 18:10:08] [debug] [  nRF52] - Read memory description from family DLL: "Flash" [0x00000000-0x00100000] 256 pages (256x4kB) static ID0
[2026-Mar-19 18:10:08] [debug] [  nRF52] - Read memory description from family DLL: "Code RAM" [0x00800000-0x00840000] 22 pages (16x4kB,6x32kB) static ID8388608
[2026-Mar-19 18:10:08] [debug] [  nRF52] - Read memory description from family DLL: "FICR" [0x10000000-0x10001000] 1 pages (1x4kB) static ID268435456
[2026-Mar-19 18:10:08] [debug] [  nRF52] - Read memory description from family DLL: "UICR" [0x10001000-0x10002000] 1 pages (1x4kB) static ID268439552
[2026-Mar-19 18:10:08] [debug] [  nRF52] - Read memory description from family DLL: "XIP" [0x12000000-0x1A000000] 1 pages (1x131072kB) static ID301989888
[2026-Mar-19 18:10:08] [debug] [  nRF52] - Read memory description from family DLL: "RAM" [0x20000000-0x20040000] 22 pages (16x4kB,6x32kB) static ID536870912
[2026-Mar-19 18:10:08] [trace] [  JLink] - - 0.040ms  
[2026-Mar-19 18:10:08] [trace] [ Worker] - Command read_memory_descriptors executed for 6 milliseconds with result 0
[2026-Mar-19 18:10:08] [debug] [  nRF52] - read_memory_descriptors
[2026-Mar-19 18:10:08] [trace] [ Client] - Command read_page_sizes executed for 10 milliseconds with result 0
[2026-Mar-19 18:10:08] [debug] [ Client] - read_page_sizes
[2026-Mar-19 18:10:08] [trace] [ Client] - Command read_page_sizes executed for 6 milliseconds with result 0
[2026-Mar-19 18:10:08] [debug] [ Client] - read_page_sizes
[2026-Mar-19 18:10:08] [debug] [SeggerBackend] - is_connected_to_emu
[2026-Mar-19 18:10:08] [trace] [ Client] - Command read_page_sizes executed for 6 milliseconds with result 0
[2026-Mar-19 18:10:08] [debug] [ Client] - read_page_sizes
[2026-Mar-19 18:10:08] [trace] [  JLink] - JLINK_IsOpen()  
[2026-Mar-19 18:10:08] [trace] [  JLink] - - 0.007ms returns 0x01  
[2026-Mar-19 18:10:08] [trace] [  JLink] - JLINK_HasError()  
[2026-Mar-19 18:10:08] [trace] [  JLink] - JLINK_Lock()  
[2026-Mar-19 18:10:08] [debug] [  nRF52] - Just_read_memory_descriptors
[2026-Mar-19 18:10:08] [debug] [  nRF52] - Just_readback_status
[2026-Mar-19 18:10:08] [debug] [  nRF52] - Just_is_ctrl_ap_available
[2026-Mar-19 18:10:08] [debug] [SeggerBackend] - read_access_port_register
[2026-Mar-19 18:10:08] [debug] [SeggerBackend] - ---just_read_access_port_register
[2026-Mar-19 18:10:08] [debug] [SeggerBackend] - ---just_is_debug_region_powered
[2026-Mar-19 18:10:08] [debug] [SeggerBackend] - ---just_read_debug_port_register
[2026-Mar-19 18:10:08] [debug] [SeggerBackend] - ---just_select_debug_port_register
[2026-Mar-19 18:10:08] [debug] [SeggerBackend] - Select AP 255, DP Bank 0, AP Bank 255
[2026-Mar-19 18:10:08] [trace] [  JLink] - JLINK_CORESIGHT_WriteAPDPReg(DP reg 0x02, 0x00000000)  
[2026-Mar-19 18:10:08] [trace] [  JLink] - - 0.266ms returns 0  
[2026-Mar-19 18:10:08] [trace] [  JLink] - JLINK_HasError()  
[2026-Mar-19 18:10:08] [trace] [  JLink] - JLINK_CORESIGHT_ReadAPDPReg(DP reg 0x01)  
[2026-Mar-19 18:10:08] [trace] [  JLink] - Value=0xF0000040
[2026-Mar-19 18:10:08] [trace] [  JLink] - - 0.232ms returns 0  
[2026-Mar-19 18:10:08] [trace] [  JLink] - JLINK_HasError()  
[2026-Mar-19 18:10:08] [debug] [SeggerBackend] - ---just_select_access_port_register
[2026-Mar-19 18:10:08] [debug] [SeggerBackend] - Select AP 1, DP Bank 0, AP Bank 15
[2026-Mar-19 18:10:08] [trace] [  JLink] - JLINK_CORESIGHT_WriteAPDPReg(DP reg 0x02, 0x010000F0)  
[2026-Mar-19 18:10:08] [trace] [  JLink] - - 0.232ms returns 0  
[2026-Mar-19 18:10:08] [trace] [  JLink] - JLINK_HasError()  
[2026-Mar-19 18:10:08] [trace] [  JLink] - JLINK_CORESIGHT_ReadAPDPReg(AP reg 0x03)  
[2026-Mar-19 18:10:08] [trace] [  JLink] - Value=0x02880000
[2026-Mar-19 18:10:08] [trace] [  JLink] - - 0.262ms returns 0  
[2026-Mar-19 18:10:08] [trace] [  JLink] - JLINK_HasError()  
[2026-Mar-19 18:10:08] [debug] [SeggerBackend] - read_access_port_register
[2026-Mar-19 18:10:08] [debug] [SeggerBackend] - ---just_read_access_port_register
[2026-Mar-19 18:10:08] [debug] [SeggerBackend] - ---just_select_access_port_register
[2026-Mar-19 18:10:08] [trace] [  JLink] - JLINK_CORESIGHT_ReadAPDPReg(AP reg 0x03)  
[2026-Mar-19 18:10:08] [trace] [  JLink] - Value=0x02880000
[2026-Mar-19 18:10:08] [trace] [  JLink] - - 0.261ms returns 0  
[2026-Mar-19 18:10:08] [trace] [  JLink] - JLINK_HasError()  
[2026-Mar-19 18:10:08] [debug] [SeggerBackend] - read_access_port_register
[2026-Mar-19 18:10:08] [debug] [SeggerBackend] - ---just_read_access_port_register
[2026-Mar-19 18:10:08] [debug] [SeggerBackend] - ---just_select_access_port_register
[2026-Mar-19 18:10:08] [trace] [  JLink] - JLINK_CORESIGHT_ReadAPDPReg(AP reg 0x03)  
[2026-Mar-19 18:10:08] [trace] [  JLink] - Value=0x02880000
[2026-Mar-19 18:10:08] [trace] [  JLink] - - 0.263ms returns 0  
[2026-Mar-19 18:10:08] [trace] [  JLink] - JLINK_HasError()  
[2026-Mar-19 18:10:08] [debug] [SeggerBackend] - read_access_port_register
[2026-Mar-19 18:10:08] [debug] [SeggerBackend] - ---just_read_access_port_register
[2026-Mar-19 18:10:08] [debug] [SeggerBackend] - ---just_select_access_port_register
[2026-Mar-19 18:10:08] [trace] [  JLink] - JLINK_CORESIGHT_ReadAPDPReg(AP reg 0x03)  
[2026-Mar-19 18:10:08] [trace] [  JLink] - Value=0x02880000
[2026-Mar-19 18:10:08] [trace] [  JLink] - - 0.260ms returns 0  
[2026-Mar-19 18:10:08] [trace] [  JLink] - JLINK_HasError()  
[2026-Mar-19 18:10:08] [debug] [SeggerBackend] - read_access_port_register
[2026-Mar-19 18:10:08] [debug] [SeggerBackend] - ---just_read_access_port_register
[2026-Mar-19 18:10:08] [debug] [SeggerBackend] - ---just_select_access_port_register
[2026-Mar-19 18:10:08] [debug] [SeggerBackend] - Select AP 1, DP Bank 0, AP Bank 0
[2026-Mar-19 18:10:08] [trace] [  JLink] - JLINK_CORESIGHT_WriteAPDPReg(DP reg 0x02, 0x01000000)  
[2026-Mar-19 18:10:08] [trace] [  JLink] - - 0.234ms returns 0  
[2026-Mar-19 18:10:08] [trace] [  JLink] - JLINK_HasError()  
[2026-Mar-19 18:10:08] [trace] [  JLink] - JLINK_CORESIGHT_ReadAPDPReg(AP reg 0x03)  
[2026-Mar-19 18:10:08] [trace] [  JLink] - Value=0x00000001
[2026-Mar-19 18:10:08] [trace] [  JLink] - - 0.256ms returns 0  
[2026-Mar-19 18:10:08] [trace] [  JLink] - JLINK_HasError()  
[2026-Mar-19 18:10:08] [debug] [SeggerBackend] - read_access_port_register
[2026-Mar-19 18:10:08] [debug] [SeggerBackend] - ---just_read_access_port_register
[2026-Mar-19 18:10:08] [debug] [SeggerBackend] - ---just_select_access_port_register
[2026-Mar-19 18:10:08] [trace] [  JLink] - JLINK_CORESIGHT_ReadAPDPReg(AP reg 0x03)  
[2026-Mar-19 18:10:08] [trace] [  JLink] - Value=0x00000001
[2026-Mar-19 18:10:08] [trace] [  JLink] - - 0.263ms returns 0  
[2026-Mar-19 18:10:08] [trace] [  JLink] - JLINK_HasError()  
[2026-Mar-19 18:10:08] [debug] [SeggerBackend] - read_access_port_register
[2026-Mar-19 18:10:08] [debug] [SeggerBackend] - ---just_read_access_port_register
[2026-Mar-19 18:10:08] [debug] [SeggerBackend] - ---just_select_access_port_register
[2026-Mar-19 18:10:08] [trace] [  JLink] - JLINK_CORESIGHT_ReadAPDPReg(AP reg 0x03)  
[2026-Mar-19 18:10:08] [trace] [  JLink] - Value=0x00000001
[2026-Mar-19 18:10:08] [trace] [  JLink] - - 0.290ms returns 0  
[2026-Mar-19 18:10:08] [trace] [  JLink] - JLINK_HasError()  
[2026-Mar-19 18:10:08] [debug] [SeggerBackend] - read_access_port_register
[2026-Mar-19 18:10:08] [debug] [SeggerBackend] - ---just_read_access_port_register
[2026-Mar-19 18:10:08] [debug] [SeggerBackend] - ---just_select_access_port_register
[2026-Mar-19 18:10:08] [trace] [  JLink] - JLINK_CORESIGHT_ReadAPDPReg(AP reg 0x03)  
[2026-Mar-19 18:10:08] [trace] [  JLink] - Value=0x00000001
[2026-Mar-19 18:10:08] [trace] [  JLink] - - 0.258ms returns 0  
[2026-Mar-19 18:10:08] [trace] [  JLink] - JLINK_HasError()  
[2026-Mar-19 18:10:08] [ info] [  nRF52] - Protection status read as NONE
[2026-Mar-19 18:10:08] [debug] [  nRF52] - update_device_memory_list
[2026-Mar-19 18:10:08] [debug] [  nRF52] - Just_read_device_version
[2026-Mar-19 18:10:08] [debug] [  nRF52] - Just_readback_status
[2026-Mar-19 18:10:08] [debug] [  nRF52] - Just_is_ctrl_ap_available
[2026-Mar-19 18:10:08] [debug] [SeggerBackend] - read_access_port_register
[2026-Mar-19 18:10:08] [debug] [SeggerBackend] - ---just_read_access_port_register
[2026-Mar-19 18:10:08] [debug] [SeggerBackend] - ---just_select_access_port_register
[2026-Mar-19 18:10:08] [debug] [SeggerBackend] - Select AP 1, DP Bank 0, AP Bank 15
[2026-Mar-19 18:10:08] [trace] [  JLink] - JLINK_CORESIGHT_WriteAPDPReg(DP reg 0x02, 0x010000F0)  
[2026-Mar-19 18:10:08] [trace] [  JLink] - - 0.222ms returns 0  
[2026-Mar-19 18:10:08] [trace] [  JLink] - JLINK_HasError()  
[2026-Mar-19 18:10:08] [trace] [  JLink] - JLINK_CORESIGHT_ReadAPDPReg(AP reg 0x03)  
[2026-Mar-19 18:10:08] [trace] [  JLink] - Value=0x02880000
[2026-Mar-19 18:10:08] [trace] [  JLink] - - 0.343ms returns 0  
[2026-Mar-19 18:10:08] [trace] [  JLink] - JLINK_HasError()  
[2026-Mar-19 18:10:08] [debug] [SeggerBackend] - read_access_port_register
[2026-Mar-19 18:10:08] [trace] [ Client] - Command read_page_sizes executed for 6 milliseconds with result 0
[2026-Mar-19 18:10:08] [debug] [ Client] - read_page_sizes
[2026-Mar-19 18:10:08] [debug] [SeggerBackend] - ---just_read_access_port_register
[2026-Mar-19 18:10:08] [trace] [ Client] - Command read_page_sizes executed for 6 milliseconds with result 0
[2026-Mar-19 18:10:08] [debug] [ Client] - read_page_sizes
[2026-Mar-19 18:10:08] [debug] [SeggerBackend] - ---just_select_access_port_register
[2026-Mar-19 18:10:08] [trace] [  JLink] - JLINK_CORESIGHT_ReadAPDPReg(AP reg 0x03)  
[2026-Mar-19 18:10:08] [trace] [  JLink] - Value=0x02880000
[2026-Mar-19 18:10:08] [trace] [  JLink] - - 0.271ms returns 0  
[2026-Mar-19 18:10:08] [trace] [  JLink] - JLINK_HasError()  
[2026-Mar-19 18:10:08] [debug] [SeggerBackend] - read_access_port_register
[2026-Mar-19 18:10:08] [debug] [SeggerBackend] - ---just_read_access_port_register
[2026-Mar-19 18:10:08] [debug] [SeggerBackend] - ---just_select_access_port_register
[2026-Mar-19 18:10:08] [trace] [  JLink] - JLINK_CORESIGHT_ReadAPDPReg(AP reg 0x03)  
[2026-Mar-19 18:10:08] [trace] [  JLink] - Value=0x02880000
[2026-Mar-19 18:10:08] [trace] [  JLink] - - 0.262ms returns 0  
[2026-Mar-19 18:10:08] [trace] [  JLink] - JLINK_HasError()  
[2026-Mar-19 18:10:08] [debug] [SeggerBackend] - read_access_port_register
[2026-Mar-19 18:10:08] [debug] [SeggerBackend] - ---just_read_access_port_register
[2026-Mar-19 18:10:08] [debug] [SeggerBackend] - ---just_select_access_port_register
[2026-Mar-19 18:10:08] [trace] [  JLink] - JLINK_CORESIGHT_ReadAPDPReg(AP reg 0x03)  
[2026-Mar-19 18:10:08] [trace] [  JLink] - Value=0x02880000
[2026-Mar-19 18:10:08] [trace] [  JLink] - - 0.259ms returns 0  
[2026-Mar-19 18:10:08] [trace] [  JLink] - JLINK_HasError()  
[2026-Mar-19 18:10:08] [debug] [SeggerBackend] - read_access_port_register
[2026-Mar-19 18:10:08] [debug] [SeggerBackend] - ---just_read_access_port_register
[2026-Mar-19 18:10:08] [debug] [SeggerBackend] - ---just_select_access_port_register
[2026-Mar-19 18:10:08] [debug] [SeggerBackend] - Select AP 1, DP Bank 0, AP Bank 0
[2026-Mar-19 18:10:08] [trace] [  JLink] - JLINK_CORESIGHT_WriteAPDPReg(DP reg 0x02, 0x01000000)  
[2026-Mar-19 18:10:08] [trace] [  JLink] - - 0.233ms returns 0  
[2026-Mar-19 18:10:08] [trace] [  JLink] - JLINK_HasError()  
[2026-Mar-19 18:10:08] [trace] [  JLink] - JLINK_CORESIGHT_ReadAPDPReg(AP reg 0x03)  
[2026-Mar-19 18:10:08] [trace] [  JLink] - Value=0x00000001
[2026-Mar-19 18:10:08] [trace] [  JLink] - - 0.265ms returns 0  
[2026-Mar-19 18:10:08] [trace] [  JLink] - JLINK_HasError()  
[2026-Mar-19 18:10:08] [debug] [SeggerBackend] - read_access_port_register
[2026-Mar-19 18:10:08] [debug] [SeggerBackend] - ---just_read_access_port_register
